T8A4C 000:017.937   SEGGER J-Link V6.94 Log File
T8A4C 000:018.075   DLL Compiled: Jan  8 2021 13:01:30
T8A4C 000:018.085   Logging started @ 2021-04-13 03:05
T8A4C 000:018.096 - 18.101ms
T8A4C 000:018.117 JLINK_SetWarnOutHandler(...)
T8A4C 000:018.160 - 0.051ms
T8A4C 000:018.193 JLINK_OpenEx(...)
T8A4C 000:020.623   Firmware: J-Link OB-S124 compiled Sep 21 2020 16:58:21
T8A4C 000:040.952   Hardware: V1.00
T8A4C 000:040.988   S/N: 831004110
T8A4C 000:041.007   OEM: SEGGER
T8A4C 000:041.023   Feature(s): None
T8A4C 000:042.778   TELNET listener socket opened on port 19021
T8A4C 000:043.055   WEBSRV Starting webserver
T8A4C 000:043.314   WEBSRV Webserver running on local port 19080
T8A4C 000:043.340 - 25.155ms returns "O.K."
T8A4C 000:043.370 JLINK_GetEmuCaps()
T8A4C 000:043.385 - 0.022ms returns 0xB8EA5A33
T8A4C 000:043.406 JLINK_TIF_GetAvailable(...)
T8A4C 000:043.732 - 0.338ms
T8A4C 000:043.758 JLINK_SetErrorOutHandler(...)
T8A4C 000:043.769 - 0.017ms
T8A4C 000:043.818 JLINK_ExecCommand("ProjectFile = "C:\Users\supowang\Desktop\TencentOS-tiny\board\Renesas_ra6m4\JLinkSettings.ini"", ...). 
T8A4C 000:055.545   Ref file found at: C:\Keil_v5\ARM\Segger\JLinkDevices.ref
T8A4C 000:055.752   XML referenced by ref file: C:\Program Files (x86)\SEGGER\JLink\JLinkDevices.xml
T8A4C 000:057.001   C:\Program Files (x86)\SEGGER\JLink\JLinkDevices.xml evaluated successfully.
T8A4C 000:109.232 - 65.427ms returns 0x00
T8A4C 000:109.403 JLINK_ExecCommand("Device = R7FA6M4AF3CFB", ...). 
T8A4C 000:119.879   Device "R7FA6M4AF" selected.
T8A4C 000:120.717 - 11.308ms returns 0x00
T8A4C 000:120.781 JLINK_GetHardwareVersion()
T8A4C 000:120.796 - 0.022ms returns 10000
T8A4C 000:120.814 JLINK_GetDLLVersion()
T8A4C 000:120.835 - 0.028ms returns 69400
T8A4C 000:120.868 JLINK_GetOEMString(...)
T8A4C 000:120.902 JLINK_GetFirmwareString(...)
T8A4C 000:120.917 - 0.022ms
T8A4C 000:120.973 JLINK_GetDLLVersion()
T8A4C 000:120.988 - 0.022ms returns 69400
T8A4C 000:121.005 JLINK_GetCompileDateTime()
T8A4C 000:121.020 - 0.021ms
T8A4C 000:121.045 JLINK_GetFirmwareString(...)
T8A4C 000:121.060 - 0.022ms
T8A4C 000:121.082 JLINK_GetHardwareVersion()
T8A4C 000:121.097 - 0.022ms returns 10000
T8A4C 000:121.121 JLINK_GetSN()
T8A4C 000:121.138 - 0.024ms returns 831004110
T8A4C 000:121.164 JLINK_GetOEMString(...)
T8A4C 000:121.188 JLINK_TIF_Select(JLINKARM_TIF_SWD)
T8A4C 000:122.289 - 1.120ms returns 0x00
T8A4C 000:122.320 JLINK_HasError()
T8A4C 000:122.349 JLINK_SetSpeed(5000)
T8A4C 000:122.473 - 0.150ms
T8A4C 000:122.530 JLINK_GetId()
T8A4C 000:122.848   InitTarget() start
T8A4C 000:122.881    J-Link Script File: Executing InitTarget()
T8A4C 000:122.926   Determining TrustZone configuration...
T8A4C 000:125.804     Secure Debug: Enabled (SSD)
T8A4C 000:125.855   Determining currently configured transfer type by reading the AHB-AP CSW register.
T8A4C 000:127.463     --> Correct transfer type configured. Done.
T8A4C 000:127.489   InitTarget() end
T8A4C 000:128.569   Found SW-DP with ID 0x6BA02477
T8A4C 000:132.388   DPIDR: 0x6BA02477
T8A4C 000:132.422   Scanning AP map to find all available APs
T8A4C 000:134.231   AP[2]: Stopped AP scan as end of AP map has been reached
T8A4C 000:134.264   AP[0]: AHB-AP (IDR: 0x84770001)
T8A4C 000:134.285   AP[1]: APB-AP (IDR: 0x54770002)
T8A4C 000:134.304   Iterating through AP map to find AHB-AP to use
T8A4C 000:135.889   AP[0]: Core found
T8A4C 000:135.917   AP[0]: AHB-AP ROM base: 0xE00FE000
T8A4C 000:136.710   CPUID register: 0x410FD214. Implementer code: 0x41 (ARM)
T8A4C 000:136.735   Found Cortex-M33 r0p4, Little endian.
T8A4C 000:238.373   -- Max. mem block: 0x00001AF0
T8A4C 000:239.625   CPU_ReadMem(4 bytes @ 0xE000EDF0)
T8A4C 000:240.298   CPU_WriteMem(4 bytes @ 0xE000EDF0)
T8A4C 000:241.004   CPU_ReadMem(4 bytes @ 0xE0002000)
T8A4C 000:241.705   FPUnit: 8 code (BP) slots and 0 literal slots
T8A4C 000:241.728   CPU_ReadMem(4 bytes @ 0xE000EDFC)
T8A4C 000:242.373   CPU_WriteMem(4 bytes @ 0xE000EDFC)
T8A4C 000:243.055   CPU_ReadMem(4 bytes @ 0xE0001000)
T8A4C 000:243.787   CPU_WriteMem(4 bytes @ 0xE0001000)
T8A4C 000:244.521   CPU_ReadMem(4 bytes @ 0xE000ED88)
T8A4C 000:245.167   CPU_WriteMem(4 bytes @ 0xE000ED88)
T8A4C 000:245.820   CPU_ReadMem(4 bytes @ 0xE000ED88)
T8A4C 000:246.476   CPU_WriteMem(4 bytes @ 0xE000ED88)
T8A4C 000:247.141   CPU_ReadMem(4 bytes @ 0xE000EFB8)
T8A4C 000:247.794   Security extension: implemented
T8A4C 000:247.821   Secure debug: enabled
T8A4C 000:247.841   CoreSight components:
T8A4C 000:247.861   ROMTbl[0] @ E00FE000
T8A4C 000:247.877   CPU_ReadMem(64 bytes @ 0xE00FE000)
T8A4C 000:249.174   CPU_ReadMem(32 bytes @ 0xE0044FE0)
T8A4C 000:250.115   CPU_ReadMem(4 bytes @ 0xE0044FBC)
T8A4C 000:250.767   CPU_ReadMem(4 bytes @ 0xE0044FCC)
T8A4C 000:251.438   ROMTbl[0][0]: E0044000, CID: B105900D, PID: 005BB906 CTI
T8A4C 000:251.475   CPU_ReadMem(32 bytes @ 0xE0047FE0)
T8A4C 000:252.422   CPU_ReadMem(4 bytes @ 0xE0047FBC)
T8A4C 000:253.148   CPU_ReadMem(4 bytes @ 0xE0047FCC)
T8A4C 000:253.800   ROMTbl[0][1]: E0047000, CID: B105900D, PID: 003BB908 CSTF
T8A4C 000:253.821   CPU_ReadMem(32 bytes @ 0xE0048FE0)
T8A4C 000:254.776   CPU_ReadMem(4 bytes @ 0xE0048FBC)
T8A4C 000:255.430   CPU_ReadMem(4 bytes @ 0xE0048FCC)
T8A4C 000:256.074   ROMTbl[0][2]: E0048000, CID: B105900D, PID: 001BB961 TMC
T8A4C 000:256.113   CPU_ReadMem(32 bytes @ 0xE0049FE0)
T8A4C 000:257.066   ROMTbl[0][3]: E0049000, CID: B105F00D, PID: 001BB101 TSG
T8A4C 000:257.087   CPU_ReadMem(32 bytes @ 0xE0040FE0)
T8A4C 000:258.000   CPU_ReadMem(4 bytes @ 0xE0040FBC)
T8A4C 000:258.610   CPU_ReadMem(4 bytes @ 0xE0040FCC)
T8A4C 000:259.220   ROMTbl[0][4]: E0040000, CID: B105900D, PID: 000BBD21 Cortex-M33
T8A4C 000:259.241   CPU_ReadMem(32 bytes @ 0xE00FFFE0)
T8A4C 000:260.140   ROMTbl[0][5]: E00FF000, CID: B105100D, PID: 000BB4C9 ROM Table
T8A4C 000:260.164   ROMTbl[1] @ E00FF000
T8A4C 000:260.181   CPU_ReadMem(64 bytes @ 0xE00FF000)
T8A4C 000:261.455   CPU_ReadMem(32 bytes @ 0xE000EFE0)
T8A4C 000:262.443   CPU_ReadMem(4 bytes @ 0xE000EFBC)
T8A4C 000:263.126   CPU_ReadMem(4 bytes @ 0xE000EFCC)
T8A4C 000:263.929   ROMTbl[1][0]: E000E000, CID: B105900D, PID: 000BBD21 Cortex-M33
T8A4C 000:263.965   CPU_ReadMem(32 bytes @ 0xE0001FE0)
T8A4C 000:264.876   CPU_ReadMem(4 bytes @ 0xE0001FBC)
T8A4C 000:265.585   CPU_ReadMem(4 bytes @ 0xE0001FCC)
T8A4C 000:266.201   ROMTbl[1][1]: E0001000, CID: B105900D, PID: 000BBD21 DWT
T8A4C 000:266.224   CPU_ReadMem(32 bytes @ 0xE0002FE0)
T8A4C 000:267.131   CPU_ReadMem(4 bytes @ 0xE0002FBC)
T8A4C 000:267.749   CPU_ReadMem(4 bytes @ 0xE0002FCC)
T8A4C 000:268.385   ROMTbl[1][2]: E0002000, CID: B105900D, PID: 000BBD21 FPB
T8A4C 000:268.409   CPU_ReadMem(32 bytes @ 0xE0000FE0)
T8A4C 000:269.320   CPU_ReadMem(4 bytes @ 0xE0000FBC)
T8A4C 000:269.979   CPU_ReadMem(4 bytes @ 0xE0000FCC)
T8A4C 000:270.632   ROMTbl[1][3]: E0000000, CID: B105900D, PID: 000BBD21 ITM
T8A4C 000:270.655   CPU_ReadMem(32 bytes @ 0xE0041FE0)
T8A4C 000:271.589   CPU_ReadMem(4 bytes @ 0xE0041FBC)
T8A4C 000:272.215   CPU_ReadMem(4 bytes @ 0xE0041FCC)
T8A4C 000:272.833   ROMTbl[1][5]: E0041000, CID: B105900D, PID: 002BBD21 ETM
T8A4C 000:272.856   CPU_ReadMem(32 bytes @ 0xE0042FE0)
T8A4C 000:273.759   CPU_ReadMem(4 bytes @ 0xE0042FBC)
T8A4C 000:274.374   CPU_ReadMem(4 bytes @ 0xE0042FCC)
T8A4C 000:274.987   ROMTbl[1][6]: E0042000, CID: B105900D, PID: 000BBD21 CSS600-CTI
T8A4C 000:275.539 - 153.033ms returns 0x6BA02477
T8A4C 000:275.591 JLINK_GetDLLVersion()
T8A4C 000:275.602 - 0.016ms returns 69400
T8A4C 000:275.630 JLINK_CORE_GetFound()
T8A4C 000:275.654 - 0.029ms returns 0xE0200FF
T8A4C 000:275.675 JLINK_GetDebugInfo(0x100 = JLINKARM_ROM_TABLE_ADDR_INDEX)
T8A4C 000:275.687   Value=0xE00FE000
T8A4C 000:275.716 - 0.046ms returns 0
T8A4C 000:275.843 JLINK_GetDebugInfo(0x100 = JLINKARM_ROM_TABLE_ADDR_INDEX)
T8A4C 000:275.861   Value=0xE00FE000
T8A4C 000:275.876 - 0.038ms returns 0
T8A4C 000:275.889 JLINK_GetDebugInfo(0x101 = JLINKARM_DEBUG_INFO_ETM_ADDR_INDEX)
T8A4C 000:275.899   Value=0xE0041000
T8A4C 000:275.914 - 0.030ms returns 0
T8A4C 000:275.927 JLINK_ReadMemEx(0xE0041FD0, 0x20 Bytes, Flags = 0x02000004)
T8A4C 000:275.962   CPU_ReadMem(32 bytes @ 0xE0041FD0)
T8A4C 000:276.878   Data:  04 00 00 00 00 00 00 00 00 00 00 00 00 00 00 00 ...
T8A4C 000:276.900 - 0.978ms returns 32 (0x20)
T8A4C 000:276.914 JLINK_ReadMemU32(0xE0041FBC, 0x1 Items)
T8A4C 000:276.930   CPU_ReadMem(4 bytes @ 0xE0041FBC)
T8A4C 000:277.535   Data:  13 4A 72 47
T8A4C 000:277.557 - 0.648ms returns 1 (0x1)
T8A4C 000:277.572 JLINK_GetDebugInfo(0x102 = JLINKARM_DEBUG_INFO_MTB_ADDR_INDEX)
T8A4C 000:277.584   Value=0x00000000
T8A4C 000:277.599 - 0.031ms returns 0
T8A4C 000:277.612 JLINK_GetDebugInfo(0x103 = JLINKARM_DEBUG_INFO_TPIU_ADDR_INDEX)
T8A4C 000:277.622   Value=0x00000000
T8A4C 000:277.637 - 0.030ms returns 0
T8A4C 000:277.650 JLINK_ReadMemEx(0xE0040FF0, 0x10 Bytes, Flags = 0x02000004)
T8A4C 000:277.665   CPU_ReadMem(16 bytes @ 0xE0040FF0)
T8A4C 000:278.380   Data:  0D 00 00 00 90 00 00 00 05 00 00 00 B1 00 00 00
T8A4C 000:278.400 - 0.755ms returns 16 (0x10)
T8A4C 000:278.430 JLINK_GetDebugInfo(0x104 = JLINKARM_DEBUG_INFO_ITM_ADDR_INDEX)
T8A4C 000:278.465   Value=0xE0000000
T8A4C 000:278.509 - 0.085ms returns 0
T8A4C 000:278.523 JLINK_GetDebugInfo(0x105 = JLINKARM_DEBUG_INFO_DWT_ADDR_INDEX)
T8A4C 000:278.533   Value=0xE0001000
T8A4C 000:278.548 - 0.030ms returns 0
T8A4C 000:278.560 JLINK_GetDebugInfo(0x106 = JLINKARM_DEBUG_INFO_FPB_ADDR_INDEX)
T8A4C 000:278.570   Value=0xE0002000
T8A4C 000:278.585 - 0.030ms returns 0
T8A4C 000:278.597 JLINK_GetDebugInfo(0x107 = JLINKARM_DEBUG_INFO_NVIC_ADDR_INDEX)
T8A4C 000:278.607   Value=0xE000E000
T8A4C 000:278.621 - 0.029ms returns 0
T8A4C 000:278.633 JLINK_GetDebugInfo(0x10C = JLINKARM_DEBUG_INFO_DBG_ADDR_INDEX)
T8A4C 000:278.643   Value=0xE000EDF0
T8A4C 000:278.658 - 0.029ms returns 0
T8A4C 000:278.670 JLINK_GetDebugInfo(0x01 = Unknown)
T8A4C 000:278.680   Value=0x00000001
T8A4C 000:278.694 - 0.029ms returns 0
T8A4C 000:278.706 JLINK_ReadMemU32(0xE000ED00, 0x1 Items)
T8A4C 000:278.720   CPU_ReadMem(4 bytes @ 0xE000ED00)
T8A4C 000:279.322   Data:  14 D2 0F 41
T8A4C 000:279.342   Debug reg: CPUID
T8A4C 000:279.357 - 0.655ms returns 1 (0x1)
T8A4C 000:279.371 JLINK_GetDebugInfo(0x10F = JLINKARM_DEBUG_INFO_HAS_CORTEX_M_SECURITY_EXT_INDEX)
T8A4C 000:279.382   Value=0x00000001
T8A4C 000:279.397 - 0.031ms returns 0
T8A4C 000:279.411 JLINK_ReadMemU32(0xE000EFB8, 0x1 Items)
T8A4C 000:279.451   CPU_ReadMem(4 bytes @ 0xE000EFB8)
T8A4C 000:280.055   Data:  FF 00 00 00
T8A4C 000:280.074 - 0.668ms returns 1 (0x1)
T8A4C 000:280.089 JLINK_ReadMemU32(0xE000EDF0, 0x1 Items)
T8A4C 000:280.103   CPU_ReadMem(4 bytes @ 0xE000EDF0)
T8A4C 000:280.711   Data:  01 00 10 01
T8A4C 000:280.730   Debug reg: DHCSR
T8A4C 000:280.746 - 0.662ms returns 1 (0x1)
T8A4C 000:280.760 JLINK_ReadMemU32(0xE000EE08, 0x1 Items)
T8A4C 000:280.774   CPU_ReadMem(4 bytes @ 0xE000EE08)
T8A4C 000:281.395   Data:  00 00 03 00
T8A4C 000:281.437   Debug reg: DSCSR
T8A4C 000:281.478 - 0.724ms returns 1 (0x1)
T8A4C 000:281.507 JLINK_HasError()
T8A4C 000:281.520 JLINK_SetResetType(JLINKARM_CM3_RESET_TYPE_NORMAL)
T8A4C 000:281.531 - 0.015ms returns JLINKARM_CM3_RESET_TYPE_NORMAL
T8A4C 000:281.543 JLINK_Reset()
T8A4C 000:281.570   CPU is running
T8A4C 000:281.587   CPU_WriteMem(4 bytes @ 0xE000EDF0)
T8A4C 000:282.263   CPU_ReadMem(4 bytes @ 0xE000EE08)
T8A4C 000:282.977   CPU is running
T8A4C 000:282.997   CPU_WriteMem(4 bytes @ 0xE000EE08)
T8A4C 000:283.710   CPU is running
T8A4C 000:283.730   CPU_WriteMem(4 bytes @ 0xE000EDFC)
T8A4C 000:284.607   Reset: Halt core after reset via DEMCR.VC_CORERESET.
T8A4C 000:285.614   Reset: Reset device via AIRCR.SYSRESETREQ.
T8A4C 000:285.653   CPU is running
T8A4C 000:285.670   CPU_WriteMem(4 bytes @ 0xE000ED0C)
T8A4C 000:340.324   CPU_ReadMem(4 bytes @ 0xE000EDF0)
T8A4C 000:341.004   CPU_ReadMem(4 bytes @ 0xE000EDF0)
T8A4C 000:341.672   CPU is running
T8A4C 000:341.696   CPU_WriteMem(4 bytes @ 0xE000EDF0)
T8A4C 000:342.430   CPU is running
T8A4C 000:342.452   CPU_WriteMem(4 bytes @ 0xE000EDFC)
T8A4C 000:348.248   CPU_ReadMem(4 bytes @ 0xE000EDF0)
T8A4C 000:355.337   CPU_ReadMem(4 bytes @ 0xE000EE08)
T8A4C 000:356.011   CPU_WriteMem(4 bytes @ 0xE0002000)
T8A4C 000:356.725   CPU_ReadMem(4 bytes @ 0xE000EDFC)
T8A4C 000:357.369   CPU_ReadMem(4 bytes @ 0xE0001000)
T8A4C 000:358.040   CPU_ReadMem(4 bytes @ 0xE000EE08)
T8A4C 000:358.698 - 77.167ms
T8A4C 000:358.724 JLINK_HasError()
T8A4C 000:358.738 JLINK_ReadReg(R15 (PC))
T8A4C 000:358.758   CPU_ReadMem(4 bytes @ 0xE000EE08)
T8A4C 000:359.479 - 0.752ms returns 0x000007DC
T8A4C 000:359.503 JLINK_ReadReg(XPSR)
T8A4C 000:359.517 - 0.020ms returns 0xF9000000
T8A4C 000:359.531 JLINK_Halt()
T8A4C 000:359.558 - 0.032ms returns 0x00
T8A4C 000:359.585 JLINK_ReadMemU32(0xE000EFB8, 0x1 Items)
T8A4C 000:359.615   CPU_ReadMem(4 bytes @ 0xE000EFB8)
T8A4C 000:360.294   Data:  FF 00 00 00
T8A4C 000:360.331 - 0.764ms returns 1 (0x1)
T8A4C 000:360.375 JLINK_ReadMemU32(0xE000EDF0, 0x1 Items)
T8A4C 000:360.406   CPU_ReadMem(4 bytes @ 0xE000EDF0)
T8A4C 000:361.109   Data:  03 00 13 00
T8A4C 000:361.130   Debug reg: DHCSR
T8A4C 000:361.145 - 0.774ms returns 1 (0x1)
T8A4C 000:361.161 JLINK_ReadMemU32(0xE000EDF0, 0x1 Items)
T8A4C 000:361.191   CPU_ReadMem(4 bytes @ 0xE000EDF0)
T8A4C 000:361.934   Data:  03 00 13 00
T8A4C 000:361.956   Debug reg: DHCSR
T8A4C 000:361.989 - 0.833ms returns 1 (0x1)
T8A4C 000:362.005 JLINK_WriteU32_64(0xE000EDF0, 0xA05F0003)
T8A4C 000:362.016   Debug reg: DHCSR
T8A4C 000:362.656   CPU_WriteMem(4 bytes @ 0xE000EDF0)
T8A4C 000:363.422 - 1.442ms returns 0 (0x00000000)
T8A4C 000:363.459 JLINK_WriteU32_64(0xE000EDFC, 0x01000000)
T8A4C 000:363.498   Debug reg: DEMCR
T8A4C 000:363.520   CPU_WriteMem(4 bytes @ 0xE000EDFC)
T8A4C 000:364.305 - 0.859ms returns 0 (0x00000000)
T8A4C 000:364.426 JLINK_GetHWStatus(...)
T8A4C 000:364.760 - 0.346ms returns 0
T8A4C 000:364.817 JLINK_GetNumBPUnits(Type = 0xFFFFFF00)
T8A4C 000:364.829 - 0.017ms returns 0x08
T8A4C 000:364.841 JLINK_GetNumBPUnits(Type = 0xF0)
T8A4C 000:364.852 - 0.015ms returns 0x2000
T8A4C 000:364.864 JLINK_GetNumWPUnits()
T8A4C 000:364.874 - 0.015ms returns 4
T8A4C 000:364.898 JLINK_GetSpeed()
T8A4C 000:364.908 - 0.028ms returns 2000
T8A4C 000:364.940 JLINK_ReadMemU32(0xE000E004, 0x1 Items)
T8A4C 000:364.955   CPU_ReadMem(4 bytes @ 0xE000E004)
T8A4C 000:365.633   Data:  03 00 00 00
T8A4C 000:365.654 - 0.719ms returns 1 (0x1)
T8A4C 000:365.668 JLINK_ReadMemU32(0xE000E004, 0x1 Items)
T8A4C 000:365.683   CPU_ReadMem(4 bytes @ 0xE000E004)
T8A4C 000:366.400   Data:  03 00 00 00
T8A4C 000:366.421 - 0.757ms returns 1 (0x1)
T8A4C 000:366.436 JLINK_WriteMemEx(0xE0001000, 0x0000001C Bytes, Flags = 0x02000004)
T8A4C 000:366.447   Data:  01 00 00 00 00 00 00 00 00 00 00 00 00 00 00 00 ...
T8A4C 000:366.467   CPU_WriteMem(28 bytes @ 0xE0001000)
T8A4C 000:367.463 - 1.039ms returns 0x1C
T8A4C 000:367.499 JLINK_ReadMemU32(0xE000EFB8, 0x1 Items)
T8A4C 000:367.529   CPU_ReadMem(4 bytes @ 0xE000EFB8)
T8A4C 000:368.216   Data:  FF 00 00 00
T8A4C 000:368.260 - 0.768ms returns 1 (0x1)
T8A4C 000:368.281 JLINK_ReadMemU32(0xE000EDF0, 0x1 Items)
T8A4C 000:368.298   CPU_ReadMem(4 bytes @ 0xE000EDF0)
T8A4C 000:368.866   Data:  03 00 13 00
T8A4C 000:368.902   Debug reg: DHCSR
T8A4C 000:368.917 - 0.641ms returns 1 (0x1)
T8A4C 000:368.932 JLINK_HasError()
T8A4C 000:368.945 JLINK_ReadReg(R15 (PC))
T8A4C 000:368.959 - 0.019ms returns 0x000007DC
T8A4C 000:368.972 JLINK_ReadReg(XPSR)
T8A4C 000:368.984 - 0.017ms returns 0xF9000000
T8A4C 000:369.143 JLINK_ReadMemU32(0xE000EE08, 0x1 Items)
T8A4C 000:369.163   Data:  00 00 03 00
T8A4C 000:369.195   Debug reg: DSCSR
T8A4C 000:369.238 - 0.102ms returns 1 (0x1)
T8A4C 000:369.256 JLINK_ReadMemU32(0xE000EFB8, 0x1 Items)
T8A4C 000:369.289   CPU_ReadMem(4 bytes @ 0xE000EFB8)
T8A4C 000:369.953   Data:  FF 00 00 00
T8A4C 000:369.973 - 0.722ms returns 1 (0x1)
T8A4C 000:369.988 JLINK_ReadMemU32(0xE000EDF0, 0x1 Items)
T8A4C 000:370.003   CPU_ReadMem(4 bytes @ 0xE000EDF0)
T8A4C 000:370.603   Data:  03 00 13 00
T8A4C 000:370.623   Debug reg: DHCSR
T8A4C 000:370.676 - 0.692ms returns 1 (0x1)
T8A4C 000:370.697 JLINK_ReadMemU32(0xE000EE08, 0x1 Items)
T8A4C 000:370.712   Data:  00 00 03 00
T8A4C 000:370.728   Debug reg: DSCSR
T8A4C 000:370.746 - 0.054ms returns 1 (0x1)
T8A4C 000:370.759 JLINK_ReadMemU32(0xE000EFB8, 0x1 Items)
T8A4C 000:370.771   CPU_ReadMem(4 bytes @ 0xE000EFB8)
T8A4C 000:371.490   Data:  FF 00 00 00
T8A4C 000:371.513 - 0.759ms returns 1 (0x1)
T8A4C 000:371.528 JLINK_ReadMemU32(0xE000EDF0, 0x1 Items)
T8A4C 000:371.543   CPU_ReadMem(4 bytes @ 0xE000EDF0)
T8A4C 000:372.174   Data:  03 00 13 00
T8A4C 000:372.202   Debug reg: DHCSR
T8A4C 000:372.230 - 0.707ms returns 1 (0x1)
T8A4C 000:372.247 JLINK_ReadMemU32(0xE000EE08, 0x1 Items)
T8A4C 000:372.262   Data:  00 00 03 00
T8A4C 000:372.278   Debug reg: DSCSR
T8A4C 000:372.293 - 0.050ms returns 1 (0x1)
T8A4C 000:372.305 JLINK_ReadMemU32(0xE000EFB8, 0x1 Items)
T8A4C 000:372.318   CPU_ReadMem(4 bytes @ 0xE000EFB8)
T8A4C 000:372.973   Data:  FF 00 00 00
T8A4C 000:373.026 - 0.726ms returns 1 (0x1)
T8A4C 000:373.054 JLINK_ReadMemU32(0xE000EDF0, 0x1 Items)
T8A4C 000:373.069   CPU_ReadMem(4 bytes @ 0xE000EDF0)
T8A4C 000:373.723   Data:  03 00 13 00
T8A4C 000:373.761   Debug reg: DHCSR
T8A4C 000:373.791 - 0.742ms returns 1 (0x1)
T8A4C 000:373.809 JLINK_ReadMemU32(0xE000EE08, 0x1 Items)
T8A4C 000:373.825   Data:  00 00 03 00
T8A4C 000:373.841   Debug reg: DSCSR
T8A4C 000:373.856 - 0.052ms returns 1 (0x1)
T8A4C 000:373.868 JLINK_ReadMemU32(0xE000EFB8, 0x1 Items)
T8A4C 000:373.881   CPU_ReadMem(4 bytes @ 0xE000EFB8)
T8A4C 000:374.563   Data:  FF 00 00 00
T8A4C 000:374.585 - 0.722ms returns 1 (0x1)
T8A4C 000:374.600 JLINK_ReadMemU32(0xE000EDF0, 0x1 Items)
T8A4C 000:374.615   CPU_ReadMem(4 bytes @ 0xE000EDF0)
T8A4C 000:375.234   Data:  03 00 13 00
T8A4C 000:375.274   Debug reg: DHCSR
T8A4C 000:375.289 - 0.694ms returns 1 (0x1)
T8A4C 000:375.306 JLINK_ReadMemU32(0xE000EE08, 0x1 Items)
T8A4C 000:375.321   Data:  00 00 03 00
T8A4C 000:375.339   Debug reg: DSCSR
T8A4C 000:375.353 - 0.053ms returns 1 (0x1)
T8A4C 000:375.367 JLINK_ReadMemU32(0xE000EFB8, 0x1 Items)
T8A4C 000:375.379   CPU_ReadMem(4 bytes @ 0xE000EFB8)
T8A4C 000:376.033   Data:  FF 00 00 00
T8A4C 000:376.055 - 0.694ms returns 1 (0x1)
T8A4C 000:376.070 JLINK_ReadMemU32(0xE000EDF0, 0x1 Items)
T8A4C 000:376.085   CPU_ReadMem(4 bytes @ 0xE000EDF0)
T8A4C 000:376.735   Data:  03 00 13 00
T8A4C 000:376.758   Debug reg: DHCSR
T8A4C 000:376.773 - 0.708ms returns 1 (0x1)
T8A4C 000:376.790 JLINK_ReadMemU32(0xE000EE08, 0x1 Items)
T8A4C 000:376.805   Data:  00 00 03 00
T8A4C 000:376.821   Debug reg: DSCSR
T8A4C 000:376.836 - 0.051ms returns 1 (0x1)
T8A4C 000:376.849 JLINK_ReadMemU32(0xE000EFB8, 0x1 Items)
T8A4C 000:376.862   CPU_ReadMem(4 bytes @ 0xE000EFB8)
T8A4C 000:377.513   Data:  FF 00 00 00
T8A4C 000:377.536 - 0.692ms returns 1 (0x1)
T8A4C 000:377.551 JLINK_ReadMemU32(0xE000EDF0, 0x1 Items)
T8A4C 000:377.566   CPU_ReadMem(4 bytes @ 0xE000EDF0)
T8A4C 000:378.228   Data:  03 00 13 00
T8A4C 000:378.269   Debug reg: DHCSR
T8A4C 000:378.284 - 0.738ms returns 1 (0x1)
T8A4C 000:378.301 JLINK_ReadMemU32(0xE000EE08, 0x1 Items)
T8A4C 000:378.316   Data:  00 00 03 00
T8A4C 000:378.332   Debug reg: DSCSR
T8A4C 000:378.346 - 0.050ms returns 1 (0x1)
T8A4C 000:378.359 JLINK_ReadMemU32(0xE000EFB8, 0x1 Items)
T8A4C 000:378.371   CPU_ReadMem(4 bytes @ 0xE000EFB8)
T8A4C 000:379.001   Data:  FF 00 00 00
T8A4C 000:379.024 - 0.670ms returns 1 (0x1)
T8A4C 000:379.039 JLINK_ReadMemU32(0xE000EDF0, 0x1 Items)
T8A4C 000:379.054   CPU_ReadMem(4 bytes @ 0xE000EDF0)
T8A4C 000:379.708   Data:  03 00 13 00
T8A4C 000:379.731   Debug reg: DHCSR
T8A4C 000:379.775 - 0.742ms returns 1 (0x1)
T8A4C 000:379.792 JLINK_ReadMemU32(0xE000EE08, 0x1 Items)
T8A4C 000:379.822   Data:  00 00 03 00
T8A4C 000:379.839   Debug reg: DSCSR
T8A4C 000:379.858 - 0.072ms returns 1 (0x1)
T8A4C 000:379.873 JLINK_ReadMemU32(0xE000EFB8, 0x1 Items)
T8A4C 000:379.910   CPU_ReadMem(4 bytes @ 0xE000EFB8)
T8A4C 000:380.558   Data:  FF 00 00 00
T8A4C 000:380.631 - 0.763ms returns 1 (0x1)
T8A4C 000:380.646 JLINK_ReadMemU32(0xE000EDF0, 0x1 Items)
T8A4C 000:380.662   CPU_ReadMem(4 bytes @ 0xE000EDF0)
T8A4C 000:381.297   Data:  03 00 13 00
T8A4C 000:381.320   Debug reg: DHCSR
T8A4C 000:381.335 - 0.694ms returns 1 (0x1)
T8A4C 000:381.366 JLINK_ReadMemU32(0xE000EE08, 0x1 Items)
T8A4C 000:381.382   Data:  00 00 03 00
T8A4C 000:381.398   Debug reg: DSCSR
T8A4C 000:381.413 - 0.051ms returns 1 (0x1)
T8A4C 000:381.426 JLINK_ReadMemU32(0xE000EFB8, 0x1 Items)
T8A4C 000:381.438   CPU_ReadMem(4 bytes @ 0xE000EFB8)
T8A4C 000:382.083   Data:  FF 00 00 00
T8A4C 000:382.104 - 0.684ms returns 1 (0x1)
T8A4C 000:382.119 JLINK_ReadMemU32(0xE000EDF0, 0x1 Items)
T8A4C 000:382.134   CPU_ReadMem(4 bytes @ 0xE000EDF0)
T8A4C 000:382.765   Data:  03 00 13 00
T8A4C 000:382.789   Debug reg: DHCSR
T8A4C 000:382.808 - 0.694ms returns 1 (0x1)
T8A4C 000:382.826 JLINK_ReadMemU32(0xE000EE08, 0x1 Items)
T8A4C 000:382.842   Data:  00 00 03 00
T8A4C 000:382.858   Debug reg: DSCSR
T8A4C 000:382.873 - 0.053ms returns 1 (0x1)
T8A4C 000:382.887 JLINK_ReadMemU32(0xE000EFB8, 0x1 Items)
T8A4C 000:382.900   CPU_ReadMem(4 bytes @ 0xE000EFB8)
T8A4C 000:383.514   Data:  FF 00 00 00
T8A4C 000:383.537 - 0.655ms returns 1 (0x1)
T8A4C 000:383.552 JLINK_ReadMemU32(0xE000EDF0, 0x1 Items)
T8A4C 000:383.567   CPU_ReadMem(4 bytes @ 0xE000EDF0)
T8A4C 000:384.175   Data:  03 00 13 00
T8A4C 000:384.228   Debug reg: DHCSR
T8A4C 000:384.244 - 0.697ms returns 1 (0x1)
T8A4C 000:384.274 JLINK_ReadMemU32(0xE000EE08, 0x1 Items)
T8A4C 000:384.290   Data:  00 00 03 00
T8A4C 000:384.305   Debug reg: DSCSR
T8A4C 000:384.320 - 0.050ms returns 1 (0x1)
T8A4C 000:384.332 JLINK_ReadMemU32(0xE000EFB8, 0x1 Items)
T8A4C 000:384.345   CPU_ReadMem(4 bytes @ 0xE000EFB8)
T8A4C 000:384.978   Data:  FF 00 00 00
T8A4C 000:385.003 - 0.676ms returns 1 (0x1)
T8A4C 000:385.018 JLINK_ReadMemU32(0xE000EDF0, 0x1 Items)
T8A4C 000:385.033   CPU_ReadMem(4 bytes @ 0xE000EDF0)
T8A4C 000:385.657   Data:  03 00 13 00
T8A4C 000:385.679   Debug reg: DHCSR
T8A4C 000:385.695 - 0.682ms returns 1 (0x1)
T8A4C 000:385.713 JLINK_ReadMemU32(0xE000EE08, 0x1 Items)
T8A4C 000:385.728   Data:  00 00 03 00
T8A4C 000:385.744   Debug reg: DSCSR
T8A4C 000:385.759 - 0.051ms returns 1 (0x1)
T8A4C 000:385.772 JLINK_ReadMemU32(0xE000EFB8, 0x1 Items)
T8A4C 000:385.785   CPU_ReadMem(4 bytes @ 0xE000EFB8)
T8A4C 000:386.486   Data:  FF 00 00 00
T8A4C 000:386.508 - 0.741ms returns 1 (0x1)
T8A4C 000:386.523 JLINK_ReadMemU32(0xE000EDF0, 0x1 Items)
T8A4C 000:386.538   CPU_ReadMem(4 bytes @ 0xE000EDF0)
T8A4C 000:387.137   Data:  03 00 13 00
T8A4C 000:387.188   Debug reg: DHCSR
T8A4C 000:387.222 - 0.705ms returns 1 (0x1)
T8A4C 000:387.243 JLINK_ReadMemU32(0xE000EE08, 0x1 Items)
T8A4C 000:387.276   Data:  00 00 03 00
T8A4C 000:387.298   Debug reg: DSCSR
T8A4C 000:387.318 - 0.082ms returns 1 (0x1)
T8A4C 000:387.335 JLINK_ReadMemU32(0xE000EFB8, 0x1 Items)
T8A4C 000:387.351   CPU_ReadMem(4 bytes @ 0xE000EFB8)
T8A4C 000:388.006   Data:  FF 00 00 00
T8A4C 000:388.029 - 0.700ms returns 1 (0x1)
T8A4C 000:388.044 JLINK_ReadMemU32(0xE000EDF0, 0x1 Items)
T8A4C 000:388.060   CPU_ReadMem(4 bytes @ 0xE000EDF0)
T8A4C 000:388.761   Data:  03 00 13 00
T8A4C 000:388.784   Debug reg: DHCSR
T8A4C 000:388.800 - 0.760ms returns 1 (0x1)
T8A4C 000:388.817 JLINK_ReadMemU32(0xE000EE08, 0x1 Items)
T8A4C 000:388.832   Data:  00 00 03 00
T8A4C 000:388.848   Debug reg: DSCSR
T8A4C 000:388.863 - 0.051ms returns 1 (0x1)
T8A4C 000:388.876 JLINK_ReadMemU32(0xE000EFB8, 0x1 Items)
T8A4C 000:388.889   CPU_ReadMem(4 bytes @ 0xE000EFB8)
T8A4C 000:389.545   Data:  FF 00 00 00
T8A4C 000:389.567 - 0.696ms returns 1 (0x1)
T8A4C 000:389.582 JLINK_ReadMemU32(0xE000EDF0, 0x1 Items)
T8A4C 000:389.598   CPU_ReadMem(4 bytes @ 0xE000EDF0)
T8A4C 000:390.212   Data:  03 00 13 00
T8A4C 000:390.236   Debug reg: DHCSR
T8A4C 000:390.251 - 0.674ms returns 1 (0x1)
T8A4C 000:390.271 JLINK_ReadMemU32(0xE000EE08, 0x1 Items)
T8A4C 000:390.287   Data:  00 00 03 00
T8A4C 000:390.340   Debug reg: DSCSR
T8A4C 000:390.355 - 0.089ms returns 1 (0x1)
T8A4C 000:390.369 JLINK_ReadMemU32(0xE000EFB8, 0x1 Items)
T8A4C 000:390.383   CPU_ReadMem(4 bytes @ 0xE000EFB8)
T8A4C 000:391.035   Data:  FF 00 00 00
T8A4C 000:391.056 - 0.692ms returns 1 (0x1)
T8A4C 000:391.073 JLINK_ReadMemU32(0xE000EDF0, 0x1 Items)
T8A4C 000:391.088   CPU_ReadMem(4 bytes @ 0xE000EDF0)
T8A4C 000:391.758   Data:  03 00 13 00
T8A4C 000:391.778   Debug reg: DHCSR
T8A4C 000:391.794 - 0.725ms returns 1 (0x1)
T8A4C 000:391.813 JLINK_ReadMemU32(0xE000EE08, 0x1 Items)
T8A4C 000:391.827   Data:  00 00 03 00
T8A4C 000:391.843   Debug reg: DSCSR
T8A4C 000:391.858 - 0.050ms returns 1 (0x1)
T8A4C 000:391.873 JLINK_ReadMemU32(0xE000EFB8, 0x1 Items)
T8A4C 000:391.887   CPU_ReadMem(4 bytes @ 0xE000EFB8)
T8A4C 000:392.576   Data:  FF 00 00 00
T8A4C 000:392.628 - 0.760ms returns 1 (0x1)
